
T17DC 000:305 SEGGER J-Link V4.96d Log File (0000ms, 0272ms total)
T17DC 000:305 DLL Compiled: Jan 29 2015 11:45:37 (0000ms, 0272ms total)
T17DC 000:305 Logging started @ 2018-12-26 23:40 (0000ms, 0272ms total)
T17DC 000:305 JLINK_SetWarnOutHandler(...) (0000ms, 0272ms total)
T17DC 000:305 JLINK_OpenEx(...)
Firmware: J-Link ARM V8 compiled Jan 31 2018 18:34:52
Hardware: V8.00
S/N: 20080643
Feature(s): RDI,FlashDL,FlashBP,JFlash,GDBFull  returns O.K. (0271ms, 0543ms total)
T17DC 000:576 JLINK_SetErrorOutHandler(...) (0000ms, 0543ms total)
T17DC 000:576 JLINK_ExecCommand("ProjectFile = "D:\working\smokeGrill\1222\STemWin526_UCOSIII_Elite_1212_v2_ori\STemWin526_UCOSIII_Elite_1223\USER\JLinkSettings.ini"", ...)  returns 0x00 (0000ms, 0543ms total)
T17DC 000:579 JLINK_ExecCommand("Device = STM32F103ZG", ...)Device "STM32F103ZG" selected.  returns 0x00 (0009ms, 0553ms total)
T17DC 000:589 JLINK_ExecCommand("DisableConnectionTimeout", ...)  returns 0x01 (0000ms, 0553ms total)
T17DC 000:589 JLINK_GetHardwareVersion()  returns 0x13880 (0000ms, 0553ms total)
T17DC 000:589 JLINK_GetDLLVersion()  returns 49604 (0000ms, 0553ms total)
T17DC 000:589 JLINK_GetFirmwareString(...) (0000ms, 0553ms total)
T17DC 000:605 JLINK_GetDLLVersion()  returns 49604 (0000ms, 0553ms total)
T17DC 000:605 JLINK_GetCompileDateTime() (0000ms, 0553ms total)
T17DC 000:609 JLINK_GetFirmwareString(...) (0000ms, 0553ms total)
T17DC 000:612 JLINK_GetHardwareVersion()  returns 0x13880 (0000ms, 0553ms total)
T17DC 000:625 JLINK_TIF_Select(JLINKARM_TIF_SWD)  returns 0x00 (0004ms, 0557ms total)
T17DC 000:629 JLINK_SetSpeed(5000) (0001ms, 0558ms total)
T17DC 000:630 JLINK_GetId() >0x108 TIF>Found SWD-DP with ID 0x1BA01477 >0x0D TIF> >0x28 TIF> >0x0D TIF> >0x28 TIF> >0x0D TIF> >0x21 TIF> >0x0D TIF> >0x28 TIF> >0x0D TIF> >0x28 TIF> >0x0D TIF> >0x28 TIF> >0x0D TIF> >0x21 TIF> >0x0D TIF> >0x21 TIF> >0x0D TIF> >0x28 TIF> >0x0D TIF> >0x21 TIF> >0x0D TIF> >0x21 TIF> >0x108 TIF>Found SWD-DP with ID 0x1BA01477 >0x0D TIF> >0x21 TIF> >0x0D TIF> >0x28 TIF> >0x0D TIF> >0x28 TIF> >0x0D TIF> >0x21 TIF> >0x0D TIF> >0x28 TIF> >0x0D TIF> >0x21 TIF> >0x0D TIF> >0x21 TIF>
 >0x0D TIF> >0x21 TIF> >0x0D TIF> >0x28 TIF> >0x0D TIF> >0x21 TIF> >0x0D TIF> >0x28 TIF> >0x0D TIF> >0x28 TIF> >0x0D TIF> >0x21 TIF> >0x0D TIF> >0x28 TIF> >0x0D TIF> >0x28 TIF> >0x0D TIF> >0x28 TIF> >0x0D TIF> >0x21 TIF> >0x0D TIF> >0x21 TIF> >0x0D TIF> >0x28 TIF> >0x0D TIF> >0x21 TIF> >0x0D TIF> >0x21 TIF>Found Cortex-M3 r1p1, Little endian. >0x0D TIF> >0x28 TIF> -- CPU_WriteMem(4 bytes @ 0xE0002000) -- CPU_ReadMem(4 bytes @ 0xE000EDF0) -- CPU_ReadMem(4 bytes @ 0xE0002000)
FPUnit: 6 code (BP) slots and 2 literal slots -- CPU_ReadMem(4 bytes @ 0xE000EDFC) -- CPU_ReadMem(4 bytes @ 0xE0001000) -- CPU_WriteMem(4 bytes @ 0xE0001000) -- CPU_ReadMem(4 bytes @ 0xE000ED88) -- CPU_WriteMem(4 bytes @ 0xE000ED88) -- CPU_ReadMem(4 bytes @ 0xE000ED88) -- CPU_WriteMem(4 bytes @ 0xE000ED88) -- CPU_ReadMem(4 bytes @ 0xE00FF010)TPIU fitted. -- CPU_ReadMem(4 bytes @ 0xE00FF014)ETM fitted. -- CPU_ReadMem(4 bytes @ 0xE00FF018) >0x0D TIF> >0x21 TIF>  returns 0x1BA01477 (0110ms, 0668ms total)
T17DC 000:740 JLINK_GetDLLVersion()  returns 49604 (0000ms, 0668ms total)
T17DC 000:740 JLINK_CORE_GetFound()  returns 0x30000FF (0000ms, 0668ms total)
T17DC 000:740 JLINK_GetDebugInfo(0x100) -- Value=0xE00FF003  returns 0x00 (0000ms, 0668ms total)
T17DC 000:743 JLINK_ReadMem (0xE00FF000, 0x0020 Bytes, ...) -- CPU is running -- CPU_ReadMem(32 bytes @ 0xE00FF000) - Data: 03 F0 F0 FF 03 20 F0 FF 03 30 F0 FF 03 10 F0 FF ...  returns 0x00 (0002ms, 0670ms total)
T17DC 000:745 JLINK_ReadMem (0xE000EFF0, 0x0010 Bytes, ...) -- CPU is running -- CPU_ReadMem(16 bytes @ 0xE000EFF0) - Data: 0D 00 00 00 E0 00 00 00 05 00 00 00 B1 00 00 00  returns 0x00 (0001ms, 0671ms total)
T17DC 000:746 JLINK_ReadMem (0xE000EFD0, 0x0020 Bytes, ...) -- CPU is running -- CPU_ReadMem(32 bytes @ 0xE000EFD0) - Data: 04 00 00 00 00 00 00 00 00 00 00 00 00 00 00 00 ...  returns 0x00 (0001ms, 0672ms total)
T17DC 000:747 JLINK_ReadMem (0xE0001FF0, 0x0010 Bytes, ...) -- CPU is running -- CPU_ReadMem(16 bytes @ 0xE0001FF0) - Data: 0D 00 00 00 E0 00 00 00 05 00 00 00 B1 00 00 00  returns 0x00 (0001ms, 0673ms total)
T17DC 000:748 JLINK_ReadMem (0xE0001FD0, 0x0020 Bytes, ...) -- CPU is running -- CPU_ReadMem(32 bytes @ 0xE0001FD0) - Data: 04 00 00 00 00 00 00 00 00 00 00 00 00 00 00 00 ...  returns 0x00 (0001ms, 0674ms total)
T17DC 000:749 JLINK_ReadMem (0xE0002FF0, 0x0010 Bytes, ...) -- CPU is running -- CPU_ReadMem(16 bytes @ 0xE0002FF0) - Data: 0D 00 00 00 E0 00 00 00 05 00 00 00 B1 00 00 00  returns 0x00 (0001ms, 0675ms total)
T17DC 000:750 JLINK_ReadMem (0xE0002FD0, 0x0020 Bytes, ...) -- CPU is running -- CPU_ReadMem(32 bytes @ 0xE0002FD0) - Data: 04 00 00 00 00 00 00 00 00 00 00 00 00 00 00 00 ...  returns 0x00 (0001ms, 0676ms total)
T17DC 000:751 JLINK_ReadMem (0xE0000FF0, 0x0010 Bytes, ...) -- CPU is running -- CPU_ReadMem(16 bytes @ 0xE0000FF0) - Data: 0D 00 00 00 E0 00 00 00 05 00 00 00 B1 00 00 00  returns 0x00 (0001ms, 0677ms total)
T17DC 000:752 JLINK_ReadMem (0xE0000FD0, 0x0020 Bytes, ...) -- CPU is running -- CPU_ReadMem(32 bytes @ 0xE0000FD0) - Data: 04 00 00 00 00 00 00 00 00 00 00 00 00 00 00 00 ...  returns 0x00 (0001ms, 0678ms total)
T17DC 000:753 JLINK_ReadMem (0xE0040FF0, 0x0010 Bytes, ...) -- CPU is running -- CPU_ReadMem(16 bytes @ 0xE0040FF0) - Data: 0D 00 00 00 90 00 00 00 05 00 00 00 B1 00 00 00  returns 0x00 (0001ms, 0679ms total)
T17DC 000:754 JLINK_ReadMem (0xE0040FD0, 0x0020 Bytes, ...) -- CPU is running -- CPU_ReadMem(32 bytes @ 0xE0040FD0) - Data: 04 00 00 00 00 00 00 00 00 00 00 00 00 00 00 00 ...  returns 0x00 (0001ms, 0680ms total)
T17DC 000:755 JLINK_ReadMem (0xE0041FF0, 0x0010 Bytes, ...) -- CPU is running -- CPU_ReadMem(16 bytes @ 0xE0041FF0) - Data: 0D 00 00 00 90 00 00 00 05 00 00 00 B1 00 00 00  returns 0x00 (0001ms, 0681ms total)
T17DC 000:756 JLINK_ReadMem (0xE0041FD0, 0x0020 Bytes, ...) -- CPU is running -- CPU_ReadMem(32 bytes @ 0xE0041FD0) - Data: 04 00 00 00 00 00 00 00 00 00 00 00 00 00 00 00 ...  returns 0x00 (0001ms, 0682ms total)
T17DC 000:757 JLINK_ReadMemU32(0xE000ED00, 0x0001 Items, ...) -- CPU is running -- CPU_ReadMem(4 bytes @ 0xE000ED00) - Data: 31 C2 1F 41  returns 0x01 (0001ms, 0683ms total)
T17DC 000:758 JLINK_SetResetType(JLINKARM_RESET_TYPE_NORMAL)  returns JLINKARM_RESET_TYPE_NORMAL (0000ms, 0683ms total)
T17DC 000:758 JLINK_Reset() -- CPU_WriteMem(4 bytes @ 0xE0002000) -- CPU_ReadMem(4 bytes @ 0xE000EDFC) -- CPU_WriteMem(4 bytes @ 0xE000EDFC) -- CPU_ReadMem(4 bytes @ 0xE0001000) (0017ms, 0700ms total)
T17DC 000:775 JLINK_Halt()  returns 0x00 (0000ms, 0700ms total)
T17DC 000:775 JLINK_IsHalted()  returns TRUE (0000ms, 0700ms total)
T17DC 000:775 JLINK_ReadMemU32(0xE000EDF0, 0x0001 Items, ...) -- CPU_ReadMem(4 bytes @ 0xE000EDF0) - Data: 03 00 03 00  returns 0x01 (0001ms, 0701ms total)
T17DC 000:776 JLINK_WriteU32(0xE000EDF0, 0xA05F0003) -- CPU_WriteMem(4 bytes @ 0xE000EDF0)  returns 0x00 (0001ms, 0702ms total)
T17DC 000:777 JLINK_WriteU32(0xE000EDFC, 0x01000000) -- CPU_WriteMem(4 bytes @ 0xE000EDFC)  returns 0x00 (0001ms, 0703ms total)
T17DC 000:790 JLINK_GetHWStatus(...)  returns 0x00 (0001ms, 0704ms total)
T17DC 000:798 JLINK_GetNumBPUnits(Type = 0xFFFFFF00)  returns 0x06 (0000ms, 0704ms total)
T17DC 000:798 JLINK_GetNumBPUnits(Type = 0xF0)  returns 0x2000 (0000ms, 0704ms total)
T17DC 000:798 JLINK_GetNumWPUnits()  returns 0x04 (0000ms, 0704ms total)
T17DC 000:807 JLINK_GetSpeed()  returns 0xFA0 (0000ms, 0704ms total)
T17DC 000:812 JLINK_ReadMemU32(0xE000E004, 0x0001 Items, ...) -- CPU_ReadMem(4 bytes @ 0xE000E004) - Data: 01 00 00 00  returns 0x01 (0001ms, 0705ms total)
T17DC 000:813 JLINK_ReadMemU32(0xE000E004, 0x0001 Items, ...) -- CPU_ReadMem(4 bytes @ 0xE000E004) - Data: 01 00 00 00  returns 0x01 (0001ms, 0706ms total)
T17DC 000:814 JLINK_WriteMem(0xE0001000, 0x001C Bytes, ...) - Data: 01 00 00 00 00 00 00 00 00 00 00 00 00 00 00 00 ... -- CPU_WriteMem(28 bytes @ 0xE0001000)  returns 0x1C (0001ms, 0707ms total)
T17DC 000:815 JLINK_ReadMem (0xE0001000, 0x001C Bytes, ...) -- CPU_ReadMem(28 bytes @ 0xE0001000) - Data: 01 00 00 40 00 00 00 00 00 00 00 00 00 00 00 00 ...  returns 0x00 (0001ms, 0708ms total)
T17DC 000:816 JLINK_Halt()  returns 0x00 (0000ms, 0708ms total)
T17DC 000:816 JLINK_IsHalted()  returns TRUE (0000ms, 0708ms total)
T17DC 000:818 JLINK_WriteMem(0x20000000, 0x0260 Bytes, ...) - Data: 00 BE 0A E0 0D 78 2D 06 68 40 08 24 40 00 00 D3 ... -- CPU_WriteMem(608 bytes @ 0x20000000)  returns 0x260 (0004ms, 0712ms total)
T17DC 000:822 JLINK_WriteReg(R0, 0x08000000)  returns 0x00 (0001ms, 0713ms total)
T17DC 000:823 JLINK_WriteReg(R1, 0x00B71B00)  returns 0x00 (0000ms, 0713ms total)
T17DC 000:823 JLINK_WriteReg(R2, 0x00000001)  returns 0x00 (0000ms, 0713ms total)
T17DC 000:823 JLINK_WriteReg(R3, 0x00000000)  returns 0x00 (0000ms, 0713ms total)
T17DC 000:823 JLINK_WriteReg(R4, 0x00000000)  returns 0x00 (0000ms, 0713ms total)
T17DC 000:823 JLINK_WriteReg(R5, 0x00000000)  returns 0x00 (0000ms, 0713ms total)
T17DC 000:823 JLINK_WriteReg(R6, 0x00000000)  returns 0x00 (0000ms, 0713ms total)
T17DC 000:823 JLINK_WriteReg(R7, 0x00000000)  returns 0x00 (0000ms, 0713ms total)
T17DC 000:823 JLINK_WriteReg(R8, 0x00000000)  returns 0x00 (0000ms, 0713ms total)
T17DC 000:823 JLINK_WriteReg(R9, 0x20000258)  returns 0x00 (0000ms, 0713ms total)
T17DC 000:823 JLINK_WriteReg(R10, 0x00000000)  returns 0x00 (0000ms, 0713ms total)
T17DC 000:823 JLINK_WriteReg(R11, 0x00000000)  returns 0x00 (0000ms, 0713ms total)
T17DC 000:823 JLINK_WriteReg(R12, 0x00000000)  returns 0x00 (0000ms, 0713ms total)
T17DC 000:823 JLINK_WriteReg(R13 (SP), 0x20001000)  returns 0x00 (0000ms, 0713ms total)
T17DC 000:823 JLINK_WriteReg(R14, 0x20000001)  returns 0x00 (0000ms, 0713ms total)
T17DC 000:823 JLINK_WriteReg(R15 (PC), 0x20000038)  returns 0x00 (0000ms, 0713ms total)
T17DC 000:823 JLINK_WriteReg(XPSR, 0x01000000)  returns 0x00 (0000ms, 0713ms total)
T17DC 000:823 JLINK_WriteReg(MSP, 0x20001000)  returns 0x00 (0000ms, 0713ms total)
T17DC 000:823 JLINK_WriteReg(PSP, 0x20001000)  returns 0x00 (0000ms, 0713ms total)
T17DC 000:823 JLINK_WriteReg(CFBP, 0x00000000)  returns 0x00 (0000ms, 0713ms total)
T17DC 000:823 JLINK_SetBPEx(Addr = 0x20000000, Type = 0xFFFFFFF2) -- CPU_ReadMem(2 bytes @ 0x20000000)  returns 0x00000001 (0000ms, 0713ms total)
T17DC 000:823 JLINK_Go() -- CPU_WriteMem(2 bytes @ 0x20000000) -- CPU_WriteMem(4 bytes @ 0xE0002008) -- CPU_WriteMem(4 bytes @ 0xE000200C) -- CPU_WriteMem(4 bytes @ 0xE0002010) -- CPU_WriteMem(4 bytes @ 0xE0002014) -- CPU_WriteMem(4 bytes @ 0xE0002018) -- CPU_WriteMem(4 bytes @ 0xE000201C) -- CPU_WriteMem(4 bytes @ 0xE0001004) (0011ms, 0724ms total)
T17DC 000:834 JLINK_IsHalted() -- CPU_ReadMem(2 bytes @ 0x20000000)  returns TRUE (0006ms, 0730ms total)
T17DC 000:840 JLINK_ReadReg(R15 (PC))  returns 0x20000000 (0000ms, 0724ms total)
T17DC 000:840 JLINK_ClrBPEx(BPHandle = 0x00000001)  returns 0x00 (0000ms, 0724ms total)
T17DC 000:840 JLINK_ReadReg(R0)  returns 0x00000000 (0000ms, 0724ms total)
T17DC 000:841 JLINK_WriteReg(R0, 0x08000000)  returns 0x00 (0000ms, 0724ms total)
T17DC 000:841 JLINK_WriteReg(R1, 0x00B71B00)  returns 0x00 (0000ms, 0724ms total)
T17DC 000:841 JLINK_WriteReg(R2, 0x00000001)  returns 0x00 (0000ms, 0724ms total)
T17DC 000:841 JLINK_WriteReg(R3, 0x00000000)  returns 0x00 (0000ms, 0724ms total)
T17DC 000:841 JLINK_WriteReg(R4, 0x00000000)  returns 0x00 (0000ms, 0724ms total)
T17DC 000:841 JLINK_WriteReg(R5, 0x00000000)  returns 0x00 (0000ms, 0724ms total)
T17DC 000:841 JLINK_WriteReg(R6, 0x00000000)  returns 0x00 (0000ms, 0724ms total)
T17DC 000:841 JLINK_WriteReg(R7, 0x00000000)  returns 0x00 (0000ms, 0724ms total)
T17DC 000:841 JLINK_WriteReg(R8, 0x00000000)  returns 0x00 (0000ms, 0724ms total)
T17DC 000:841 JLINK_WriteReg(R9, 0x20000258)  returns 0x00 (0000ms, 0724ms total)
T17DC 000:841 JLINK_WriteReg(R10, 0x00000000)  returns 0x00 (0000ms, 0724ms total)
T17DC 000:841 JLINK_WriteReg(R11, 0x00000000)  returns 0x00 (0000ms, 0724ms total)
T17DC 000:841 JLINK_WriteReg(R12, 0x00000000)  returns 0x00 (0000ms, 0724ms total)
T17DC 000:841 JLINK_WriteReg(R13 (SP), 0x20001000)  returns 0x00 (0000ms, 0724ms total)
T17DC 000:841 JLINK_WriteReg(R14, 0x20000001)  returns 0x00 (0000ms, 0724ms total)
T17DC 000:841 JLINK_WriteReg(R15 (PC), 0x20000098)  returns 0x00 (0000ms, 0724ms total)
T17DC 000:841 JLINK_WriteReg(XPSR, 0x01000000)  returns 0x00 (0000ms, 0724ms total)
T17DC 000:841 JLINK_WriteReg(MSP, 0x20001000)  returns 0x00 (0000ms, 0724ms total)
T17DC 000:841 JLINK_WriteReg(PSP, 0x20001000)  returns 0x00 (0000ms, 0724ms total)
T17DC 000:841 JLINK_WriteReg(CFBP, 0x00000000)  returns 0x00 (0000ms, 0724ms total)
T17DC 000:841 JLINK_SetBPEx(Addr = 0x20000000, Type = 0xFFFFFFF2)  returns 0x00000002 (0000ms, 0724ms total)
T17DC 000:841 JLINK_Go() (0002ms, 0726ms total)
T17DC 000:843 JLINK_IsHalted()  returns FALSE (0001ms, 0727ms total)
T17DC 000:897 JLINK_IsHalted() -- CPU_ReadMem(2 bytes @ 0x20000000)  returns TRUE (0006ms, 0732ms total)
T17DC 000:903 JLINK_ReadReg(R15 (PC))  returns 0x20000000 (0000ms, 0726ms total)
T17DC 000:903 JLINK_ClrBPEx(BPHandle = 0x00000002)  returns 0x00 (0000ms, 0726ms total)
T17DC 000:903 JLINK_ReadReg(R0)  returns 0x00000000 (0000ms, 0726ms total)
T17DC 000:953 JLINK_WriteReg(R0, 0x00000001)  returns 0x00 (0000ms, 0726ms total)
T17DC 000:953 JLINK_WriteReg(R1, 0x00B71B00)  returns 0x00 (0000ms, 0726ms total)
T17DC 000:953 JLINK_WriteReg(R2, 0x00000001)  returns 0x00 (0000ms, 0726ms total)
T17DC 000:953 JLINK_WriteReg(R3, 0x00000000)  returns 0x00 (0000ms, 0726ms total)
T17DC 000:953 JLINK_WriteReg(R4, 0x00000000)  returns 0x00 (0000ms, 0726ms total)
T17DC 000:953 JLINK_WriteReg(R5, 0x00000000)  returns 0x00 (0000ms, 0726ms total)
T17DC 000:953 JLINK_WriteReg(R6, 0x00000000)  returns 0x00 (0000ms, 0726ms total)
T17DC 000:953 JLINK_WriteReg(R7, 0x00000000)  returns 0x00 (0000ms, 0726ms total)
T17DC 000:953 JLINK_WriteReg(R8, 0x00000000)  returns 0x00 (0000ms, 0726ms total)
T17DC 000:953 JLINK_WriteReg(R9, 0x20000258)  returns 0x00 (0000ms, 0726ms total)
T17DC 000:953 JLINK_WriteReg(R10, 0x00000000)  returns 0x00 (0000ms, 0726ms total)
T17DC 000:953 JLINK_WriteReg(R11, 0x00000000)  returns 0x00 (0000ms, 0726ms total)
T17DC 000:953 JLINK_WriteReg(R12, 0x00000000)  returns 0x00 (0001ms, 0727ms total)
T17DC 000:954 JLINK_WriteReg(R13 (SP), 0x20001000)  returns 0x00 (0000ms, 0727ms total)
T17DC 000:954 JLINK_WriteReg(R14, 0x20000001)  returns 0x00 (0000ms, 0727ms total)
T17DC 000:954 JLINK_WriteReg(R15 (PC), 0x2000007C)  returns 0x00 (0000ms, 0727ms total)
T17DC 000:954 JLINK_WriteReg(XPSR, 0x01000000)  returns 0x00 (0000ms, 0727ms total)
T17DC 000:954 JLINK_WriteReg(MSP, 0x20001000)  returns 0x00 (0000ms, 0727ms total)
T17DC 000:954 JLINK_WriteReg(PSP, 0x20001000)  returns 0x00 (0000ms, 0727ms total)
T17DC 000:954 JLINK_WriteReg(CFBP, 0x00000000)  returns 0x00 (0000ms, 0727ms total)
T17DC 000:954 JLINK_SetBPEx(Addr = 0x20000000, Type = 0xFFFFFFF2)  returns 0x00000003 (0000ms, 0727ms total)
T17DC 000:954 JLINK_Go() (0002ms, 0729ms total)
T17DC 000:956 JLINK_IsHalted() -- CPU_ReadMem(2 bytes @ 0x20000000)  returns TRUE (0005ms, 0734ms total)
T17DC 000:961 JLINK_ReadReg(R15 (PC))  returns 0x20000000 (0000ms, 0729ms total)
T17DC 000:961 JLINK_ClrBPEx(BPHandle = 0x00000003)  returns 0x00 (0000ms, 0729ms total)
T17DC 000:961 JLINK_ReadReg(R0)  returns 0x00000000 (0000ms, 0729ms total)
T17DC 000:966 JLINK_WriteMem(0x20000000, 0x0260 Bytes, ...) - Data: 00 BE 0A E0 0D 78 2D 06 68 40 08 24 40 00 00 D3 ... -- CPU_WriteMem(608 bytes @ 0x20000000)  returns 0x260 (0004ms, 0733ms total)
T17DC 000:970 JLINK_WriteReg(R0, 0x08000000)  returns 0x00 (0000ms, 0733ms total)
T17DC 000:970 JLINK_WriteReg(R1, 0x00B71B00)  returns 0x00 (0000ms, 0733ms total)
T17DC 000:970 JLINK_WriteReg(R2, 0x00000002)  returns 0x00 (0000ms, 0733ms total)
T17DC 000:970 JLINK_WriteReg(R3, 0x00000000)  returns 0x00 (0000ms, 0733ms total)
T17DC 000:970 JLINK_WriteReg(R4, 0x00000000)  returns 0x00 (0000ms, 0733ms total)
T17DC 000:970 JLINK_WriteReg(R5, 0x00000000)  returns 0x00 (0000ms, 0733ms total)
T17DC 000:970 JLINK_WriteReg(R6, 0x00000000)  returns 0x00 (0000ms, 0733ms total)
T17DC 000:970 JLINK_WriteReg(R7, 0x00000000)  returns 0x00 (0000ms, 0733ms total)
T17DC 000:970 JLINK_WriteReg(R8, 0x00000000)  returns 0x00 (0000ms, 0733ms total)
T17DC 000:970 JLINK_WriteReg(R9, 0x20000258)  returns 0x00 (0000ms, 0733ms total)
T17DC 000:970 JLINK_WriteReg(R10, 0x00000000)  returns 0x00 (0000ms, 0733ms total)
T17DC 000:970 JLINK_WriteReg(R11, 0x00000000)  returns 0x00 (0000ms, 0733ms total)
T17DC 000:970 JLINK_WriteReg(R12, 0x00000000)  returns 0x00 (0000ms, 0733ms total)
T17DC 000:970 JLINK_WriteReg(R13 (SP), 0x20001000)  returns 0x00 (0000ms, 0733ms total)
T17DC 000:970 JLINK_WriteReg(R14, 0x20000001)  returns 0x00 (0000ms, 0733ms total)
T17DC 000:970 JLINK_WriteReg(R15 (PC), 0x20000038)  returns 0x00 (0000ms, 0733ms total)
T17DC 000:970 JLINK_WriteReg(XPSR, 0x01000000)  returns 0x00 (0000ms, 0733ms total)
T17DC 000:970 JLINK_WriteReg(MSP, 0x20001000)  returns 0x00 (0000ms, 0733ms total)
T17DC 000:970 JLINK_WriteReg(PSP, 0x20001000)  returns 0x00 (0000ms, 0733ms total)
T17DC 000:970 JLINK_WriteReg(CFBP, 0x00000000)  returns 0x00 (0000ms, 0733ms total)
T17DC 000:970 JLINK_SetBPEx(Addr = 0x20000000, Type = 0xFFFFFFF2) -- CPU_ReadMem(2 bytes @ 0x20000000)  returns 0x00000004 (0001ms, 0734ms total)
T17DC 000:971 JLINK_Go() -- CPU_WriteMem(2 bytes @ 0x20000000) (0003ms, 0737ms total)
T17DC 000:974 JLINK_IsHalted() -- CPU_ReadMem(2 bytes @ 0x20000000)  returns TRUE (0006ms, 0743ms total)
T17DC 000:980 JLINK_ReadReg(R15 (PC))  returns 0x20000000 (0000ms, 0737ms total)
T17DC 000:980 JLINK_ClrBPEx(BPHandle = 0x00000004)  returns 0x00 (0000ms, 0737ms total)
T17DC 000:980 JLINK_ReadReg(R0)  returns 0x00000000 (0000ms, 0737ms total)
T17DC 000:980 JLINK_WriteMem(0x20000260, 0x0400 Bytes, ...) - Data: 38 F4 00 20 B9 36 01 08 85 07 01 08 87 07 01 08 ... -- CPU_WriteMem(1024 bytes @ 0x20000260)  returns 0x400 (0006ms, 0743ms total)
T17DC 000:986 JLINK_WriteReg(R0, 0x0800F000)  returns 0x00 (0000ms, 0743ms total)
T17DC 000:986 JLINK_WriteReg(R1, 0x00000400)  returns 0x00 (0000ms, 0743ms total)
T17DC 000:986 JLINK_WriteReg(R2, 0x20000260)  returns 0x00 (0000ms, 0743ms total)
T17DC 000:986 JLINK_WriteReg(R3, 0x00000000)  returns 0x00 (0000ms, 0743ms total)
T17DC 000:986 JLINK_WriteReg(R4, 0x00000000)  returns 0x00 (0000ms, 0743ms total)
T17DC 000:986 JLINK_WriteReg(R5, 0x00000000)  returns 0x00 (0000ms, 0743ms total)
T17DC 000:986 JLINK_WriteReg(R6, 0x00000000)  returns 0x00 (0000ms, 0743ms total)
T17DC 000:986 JLINK_WriteReg(R7, 0x00000000)  returns 0x00 (0000ms, 0743ms total)
T17DC 000:986 JLINK_WriteReg(R8, 0x00000000)  returns 0x00 (0000ms, 0743ms total)
T17DC 000:986 JLINK_WriteReg(R9, 0x20000258)  returns 0x00 (0000ms, 0743ms total)
T17DC 000:986 JLINK_WriteReg(R10, 0x00000000)  returns 0x00 (0000ms, 0743ms total)
T17DC 000:986 JLINK_WriteReg(R11, 0x00000000)  returns 0x00 (0000ms, 0743ms total)
T17DC 000:986 JLINK_WriteReg(R12, 0x00000000)  returns 0x00 (0000ms, 0743ms total)
T17DC 000:986 JLINK_WriteReg(R13 (SP), 0x20001000)  returns 0x00 (0000ms, 0743ms total)
T17DC 000:986 JLINK_WriteReg(R14, 0x20000001)  returns 0x00 (0000ms, 0743ms total)
T17DC 000:986 JLINK_WriteReg(R15 (PC), 0x2000018C)  returns 0x00 (0000ms, 0743ms total)
T17DC 000:986 JLINK_WriteReg(XPSR, 0x01000000)  returns 0x00 (0000ms, 0743ms total)
T17DC 000:986 JLINK_WriteReg(MSP, 0x20001000)  returns 0x00 (0000ms, 0743ms total)
T17DC 000:986 JLINK_WriteReg(PSP, 0x20001000)  returns 0x00 (0000ms, 0743ms total)
T17DC 000:986 JLINK_WriteReg(CFBP, 0x00000000)  returns 0x00 (0000ms, 0743ms total)
T17DC 000:986 JLINK_SetBPEx(Addr = 0x20000000, Type = 0xFFFFFFF2)  returns 0x00000005 (0000ms, 0743ms total)
T17DC 000:986 JLINK_Go() (0003ms, 0746ms total)
T17DC 000:989 JLINK_IsHalted()  returns FALSE (0001ms, 0747ms total)
T17DC 001:014 JLINK_IsHalted()  returns FALSE (0002ms, 0748ms total)
T17DC 001:017 JLINK_IsHalted()  returns FALSE (0001ms, 0747ms total)
T17DC 001:019 JLINK_IsHalted()  returns FALSE (0001ms, 0747ms total)
T17DC 001:021 JLINK_IsHalted() -- CPU_ReadMem(2 bytes @ 0x20000000)  returns TRUE (0005ms, 0751ms total)
T17DC 001:026 JLINK_ReadReg(R15 (PC))  returns 0x20000000 (0000ms, 0746ms total)
T17DC 001:026 JLINK_ClrBPEx(BPHandle = 0x00000005)  returns 0x00 (0000ms, 0746ms total)
T17DC 001:026 JLINK_ReadReg(R0)  returns 0x00000000 (0000ms, 0746ms total)
T17DC 001:027 JLINK_WriteMem(0x20000260, 0x0400 Bytes, ...) - Data: 6A 20 E0 49 08 60 E3 49 09 88 C1 F5 B4 71 88 B2 ... -- CPU_WriteMem(1024 bytes @ 0x20000260)  returns 0x400 (0006ms, 0752ms total)
T17DC 001:033 JLINK_WriteReg(R0, 0x0800F400)  returns 0x00 (0000ms, 0752ms total)
T17DC 001:033 JLINK_WriteReg(R1, 0x00000400)  returns 0x00 (0000ms, 0752ms total)
T17DC 001:033 JLINK_WriteReg(R2, 0x20000260)  returns 0x00 (0000ms, 0752ms total)
T17DC 001:033 JLINK_WriteReg(R3, 0x00000000)  returns 0x00 (0000ms, 0752ms total)
T17DC 001:033 JLINK_WriteReg(R4, 0x00000000)  returns 0x00 (0000ms, 0752ms total)
T17DC 001:033 JLINK_WriteReg(R5, 0x00000000)  returns 0x00 (0000ms, 0752ms total)
T17DC 001:033 JLINK_WriteReg(R6, 0x00000000)  returns 0x00 (0000ms, 0752ms total)
T17DC 001:033 JLINK_WriteReg(R7, 0x00000000)  returns 0x00 (0000ms, 0752ms total)
T17DC 001:033 JLINK_WriteReg(R8, 0x00000000)  returns 0x00 (0000ms, 0752ms total)
T17DC 001:033 JLINK_WriteReg(R9, 0x20000258)  returns 0x00 (0000ms, 0752ms total)
T17DC 001:033 JLINK_WriteReg(R10, 0x00000000)  returns 0x00 (0000ms, 0752ms total)
T17DC 001:033 JLINK_WriteReg(R11, 0x00000000)  returns 0x00 (0000ms, 0752ms total)
T17DC 001:033 JLINK_WriteReg(R12, 0x00000000)  returns 0x00 (0000ms, 0752ms total)
T17DC 001:033 JLINK_WriteReg(R13 (SP), 0x20001000)  returns 0x00 (0000ms, 0752ms total)
T17DC 001:033 JLINK_WriteReg(R14, 0x20000001)  returns 0x00 (0000ms, 0752ms total)
T17DC 001:033 JLINK_WriteReg(R15 (PC), 0x2000018C)  returns 0x00 (0000ms, 0752ms total)
T17DC 001:033 JLINK_WriteReg(XPSR, 0x01000000)  returns 0x00 (0000ms, 0752ms total)
T17DC 001:033 JLINK_WriteReg(MSP, 0x20001000)  returns 0x00 (0000ms, 0752ms total)
T17DC 001:033 JLINK_WriteReg(PSP, 0x20001000)  returns 0x00 (0000ms, 0752ms total)
T17DC 001:033 JLINK_WriteReg(CFBP, 0x00000000)  returns 0x00 (0000ms, 0752ms total)
T17DC 001:033 JLINK_SetBPEx(Addr = 0x20000000, Type = 0xFFFFFFF2)  returns 0x00000006 (0000ms, 0752ms total)
T17DC 001:033 JLINK_Go() (0003ms, 0755ms total)
T17DC 001:036 JLINK_IsHalted()  returns FALSE (0001ms, 0756ms total)
T17DC 001:057 JLINK_IsHalted()  returns FALSE (0001ms, 0756ms total)
T17DC 001:059 JLINK_IsHalted()  returns FALSE (0001ms, 0756ms total)
T17DC 001:061 JLINK_IsHalted()  returns FALSE (0001ms, 0756ms total)
T17DC 001:063 JLINK_IsHalted()  returns FALSE (0001ms, 0756ms total)
T17DC 001:065 JLINK_IsHalted()  returns FALSE (0001ms, 0756ms total)
T17DC 001:067 JLINK_IsHalted() -- CPU_ReadMem(2 bytes @ 0x20000000)  returns TRUE (0005ms, 0760ms total)
T17DC 001:072 JLINK_ReadReg(R15 (PC))  returns 0x20000000 (0000ms, 0755ms total)
T17DC 001:072 JLINK_ClrBPEx(BPHandle = 0x00000006)  returns 0x00 (0000ms, 0755ms total)
T17DC 001:072 JLINK_ReadReg(R0)  returns 0x00000000 (0000ms, 0755ms total)
T17DC 001:073 JLINK_WriteMem(0x20000260, 0x0400 Bytes, ...) - Data: 03 F0 3D FB 00 20 F3 49 08 60 4F F4 00 71 F2 48 ... -- CPU_WriteMem(1024 bytes @ 0x20000260)  returns 0x400 (0006ms, 0761ms total)
T17DC 001:079 JLINK_WriteReg(R0, 0x0800F800)  returns 0x00 (0000ms, 0761ms total)
T17DC 001:079 JLINK_WriteReg(R1, 0x00000400)  returns 0x00 (0000ms, 0761ms total)
T17DC 001:079 JLINK_WriteReg(R2, 0x20000260)  returns 0x00 (0000ms, 0761ms total)
T17DC 001:079 JLINK_WriteReg(R3, 0x00000000)  returns 0x00 (0000ms, 0761ms total)
T17DC 001:079 JLINK_WriteReg(R4, 0x00000000)  returns 0x00 (0000ms, 0761ms total)
T17DC 001:079 JLINK_WriteReg(R5, 0x00000000)  returns 0x00 (0000ms, 0761ms total)
T17DC 001:079 JLINK_WriteReg(R6, 0x00000000)  returns 0x00 (0000ms, 0761ms total)
T17DC 001:079 JLINK_WriteReg(R7, 0x00000000)  returns 0x00 (0000ms, 0761ms total)
T17DC 001:079 JLINK_WriteReg(R8, 0x00000000)  returns 0x00 (0000ms, 0761ms total)
T17DC 001:079 JLINK_WriteReg(R9, 0x20000258)  returns 0x00 (0000ms, 0761ms total)
T17DC 001:079 JLINK_WriteReg(R10, 0x00000000)  returns 0x00 (0000ms, 0761ms total)
T17DC 001:079 JLINK_WriteReg(R11, 0x00000000)  returns 0x00 (0000ms, 0761ms total)
T17DC 001:079 JLINK_WriteReg(R12, 0x00000000)  returns 0x00 (0000ms, 0761ms total)
T17DC 001:079 JLINK_WriteReg(R13 (SP), 0x20001000)  returns 0x00 (0000ms, 0761ms total)
T17DC 001:079 JLINK_WriteReg(R14, 0x20000001)  returns 0x00 (0000ms, 0761ms total)
T17DC 001:079 JLINK_WriteReg(R15 (PC), 0x2000018C)  returns 0x00 (0000ms, 0761ms total)
T17DC 001:079 JLINK_WriteReg(XPSR, 0x01000000)  returns 0x00 (0000ms, 0761ms total)
T17DC 001:079 JLINK_WriteReg(MSP, 0x20001000)  returns 0x00 (0000ms, 0761ms total)
T17DC 001:079 JLINK_WriteReg(PSP, 0x20001000)  returns 0x00 (0000ms, 0761ms total)
T17DC 001:079 JLINK_WriteReg(CFBP, 0x00000000)  returns 0x00 (0000ms, 0761ms total)
T17DC 001:079 JLINK_SetBPEx(Addr = 0x20000000, Type = 0xFFFFFFF2)  returns 0x00000007 (0000ms, 0761ms total)
T17DC 001:079 JLINK_Go() (0004ms, 0765ms total)
T17DC 001:083 JLINK_IsHalted()  returns FALSE (0001ms, 0766ms total)
T17DC 001:085 JLINK_IsHalted()  returns FALSE (0000ms, 0765ms total)
T17DC 001:086 JLINK_IsHalted()  returns FALSE (0000ms, 0765ms total)
T17DC 001:087 JLINK_IsHalted()  returns FALSE (0000ms, 0765ms total)
T17DC 001:088 JLINK_IsHalted()  returns FALSE (0000ms, 0765ms total)
T17DC 001:089 JLINK_IsHalted()  returns FALSE (0000ms, 0765ms total)
T17DC 001:090 JLINK_IsHalted()  returns FALSE (0000ms, 0765ms total)
T17DC 001:091 JLINK_IsHalted()  returns FALSE (0000ms, 0765ms total)
T17DC 001:092 JLINK_IsHalted()  returns FALSE (0000ms, 0765ms total)
T17DC 001:093 JLINK_IsHalted()  returns FALSE (0000ms, 0765ms total)
T17DC 001:094 JLINK_IsHalted()  returns FALSE (0000ms, 0765ms total)
T17DC 001:095 JLINK_IsHalted()  returns FALSE (0000ms, 0765ms total)
T17DC 001:096 JLINK_IsHalted()  returns FALSE (0000ms, 0765ms total)
T17DC 001:097 JLINK_IsHalted()  returns FALSE (0000ms, 0765ms total)
T17DC 001:098 JLINK_IsHalted()  returns FALSE (0000ms, 0765ms total)
T17DC 001:099 JLINK_IsHalted()  returns FALSE (0000ms, 0765ms total)
T17DC 001:100 JLINK_IsHalted()  returns FALSE (0000ms, 0765ms total)
T17DC 001:101 JLINK_IsHalted()  returns FALSE (0000ms, 0765ms total)
T17DC 001:102 JLINK_IsHalted()  returns FALSE (0000ms, 0765ms total)
T17DC 001:103 JLINK_IsHalted()  returns FALSE (0000ms, 0765ms total)
T17DC 001:104 JLINK_IsHalted()  returns FALSE (0000ms, 0765ms total)
T17DC 001:105 JLINK_IsHalted()  returns FALSE (0000ms, 0765ms total)
T17DC 001:106 JLINK_IsHalted()  returns FALSE (0000ms, 0765ms total)
T17DC 001:107 JLINK_IsHalted()  returns FALSE (0000ms, 0765ms total)
T17DC 001:108 JLINK_IsHalted()  returns FALSE (0000ms, 0765ms total)
T17DC 001:109 JLINK_IsHalted()  returns FALSE (0000ms, 0765ms total)
T17DC 001:110 JLINK_IsHalted()  returns FALSE (0000ms, 0765ms total)
T17DC 001:111 JLINK_IsHalted()  returns FALSE (0000ms, 0765ms total)
T17DC 001:112 JLINK_IsHalted()  returns FALSE (0000ms, 0765ms total)
T17DC 001:113 JLINK_IsHalted() -- CPU_ReadMem(2 bytes @ 0x20000000)  returns TRUE (0005ms, 0770ms total)
T17DC 001:118 JLINK_ReadReg(R15 (PC))  returns 0x20000000 (0000ms, 0765ms total)
T17DC 001:118 JLINK_ClrBPEx(BPHandle = 0x00000007)  returns 0x00 (0000ms, 0765ms total)
T17DC 001:118 JLINK_ReadReg(R0)  returns 0x00000000 (0000ms, 0765ms total)
T17DC 001:119 JLINK_WriteMem(0x20000260, 0x0400 Bytes, ...) - Data: 90 01 00 20 BC 01 00 20 20 00 00 20 28 00 00 20 ... -- CPU_WriteMem(1024 bytes @ 0x20000260)  returns 0x400 (0006ms, 0771ms total)
T17DC 001:125 JLINK_WriteReg(R0, 0x0800FC00)  returns 0x00 (0000ms, 0771ms total)
T17DC 001:125 JLINK_WriteReg(R1, 0x00000400)  returns 0x00 (0000ms, 0771ms total)
T17DC 001:125 JLINK_WriteReg(R2, 0x20000260)  returns 0x00 (0000ms, 0771ms total)
T17DC 001:125 JLINK_WriteReg(R3, 0x00000000)  returns 0x00 (0000ms, 0771ms total)
T17DC 001:125 JLINK_WriteReg(R4, 0x00000000)  returns 0x00 (0000ms, 0771ms total)
T17DC 001:125 JLINK_WriteReg(R5, 0x00000000)  returns 0x00 (0000ms, 0771ms total)
T17DC 001:125 JLINK_WriteReg(R6, 0x00000000)  returns 0x00 (0000ms, 0771ms total)
T17DC 001:125 JLINK_WriteReg(R7, 0x00000000)  returns 0x00 (0000ms, 0771ms total)
T17DC 001:125 JLINK_WriteReg(R8, 0x00000000)  returns 0x00 (0000ms, 0771ms total)
T17DC 001:125 JLINK_WriteReg(R9, 0x20000258)  returns 0x00 (0000ms, 0771ms total)
T17DC 001:125 JLINK_WriteReg(R10, 0x00000000)  returns 0x00 (0000ms, 0771ms total)
T17DC 001:125 JLINK_WriteReg(R11, 0x00000000)  returns 0x00 (0000ms, 0771ms total)
T17DC 001:125 JLINK_WriteReg(R12, 0x00000000)  returns 0x00 (0000ms, 0771ms total)
T17DC 001:125 JLINK_WriteReg(R13 (SP), 0x20001000)  returns 0x00 (0000ms, 0771ms total)
T17DC 001:125 JLINK_WriteReg(R14, 0x20000001)  returns 0x00 (0000ms, 0771ms total)
T17DC 001:125 JLINK_WriteReg(R15 (PC), 0x2000018C)  returns 0x00 (0000ms, 0771ms total)
T17DC 001:125 JLINK_WriteReg(XPSR, 0x01000000)  returns 0x00 (0000ms, 0771ms total)
T17DC 001:125 JLINK_WriteReg(MSP, 0x20001000)  returns 0x00 (0000ms, 0771ms total)
T17DC 001:125 JLINK_WriteReg(PSP, 0x20001000)  returns 0x00 (0000ms, 0771ms total)
T17DC 001:125 JLINK_WriteReg(CFBP, 0x00000000)  returns 0x00 (0000ms, 0771ms total)
T17DC 001:125 JLINK_SetBPEx(Addr = 0x20000000, Type = 0xFFFFFFF2)  returns 0x00000008 (0000ms, 0771ms total)
T17DC 001:125 JLINK_Go() (0003ms, 0774ms total)
T17DC 001:128 JLINK_IsHalted()  returns FALSE (0001ms, 0775ms total)
T17DC 001:130 JLINK_IsHalted()  returns FALSE (0001ms, 0775ms total)
T17DC 001:152 JLINK_IsHalted()  returns FALSE (0001ms, 0775ms total)
T17DC 001:154 JLINK_IsHalted()  returns FALSE (0001ms, 0775ms total)
T17DC 001:156 JLINK_IsHalted()  returns FALSE (0001ms, 0775ms total)
T17DC 001:158 JLINK_IsHalted()  returns FALSE (0001ms, 0775ms total)
T17DC 001:160 JLINK_IsHalted() -- CPU_ReadMem(2 bytes @ 0x20000000)  returns TRUE (0005ms, 0779ms total)
T17DC 001:165 JLINK_ReadReg(R15 (PC))  returns 0x20000000 (0000ms, 0774ms total)
T17DC 001:165 JLINK_ClrBPEx(BPHandle = 0x00000008)  returns 0x00 (0000ms, 0774ms total)
T17DC 001:165 JLINK_ReadReg(R0)  returns 0x00000000 (0000ms, 0774ms total)
T17DC 001:166 JLINK_WriteMem(0x20000260, 0x0400 Bytes, ...) - Data: 20 00 00 20 B0 01 00 20 28 00 00 20 72 00 00 20 ... -- CPU_WriteMem(1024 bytes @ 0x20000260)  returns 0x400 (0006ms, 0780ms total)
T17DC 001:172 JLINK_WriteReg(R0, 0x08010000)  returns 0x00 (0000ms, 0780ms total)
T17DC 001:172 JLINK_WriteReg(R1, 0x00000400)  returns 0x00 (0000ms, 0780ms total)
T17DC 001:172 JLINK_WriteReg(R2, 0x20000260)  returns 0x00 (0000ms, 0780ms total)
T17DC 001:172 JLINK_WriteReg(R3, 0x00000000)  returns 0x00 (0000ms, 0780ms total)
T17DC 001:172 JLINK_WriteReg(R4, 0x00000000)  returns 0x00 (0000ms, 0780ms total)
T17DC 001:172 JLINK_WriteReg(R5, 0x00000000)  returns 0x00 (0000ms, 0780ms total)
T17DC 001:172 JLINK_WriteReg(R6, 0x00000000)  returns 0x00 (0000ms, 0780ms total)
T17DC 001:172 JLINK_WriteReg(R7, 0x00000000)  returns 0x00 (0000ms, 0780ms total)
T17DC 001:172 JLINK_WriteReg(R8, 0x00000000)  returns 0x00 (0000ms, 0780ms total)
T17DC 001:172 JLINK_WriteReg(R9, 0x20000258)  returns 0x00 (0000ms, 0780ms total)
T17DC 001:172 JLINK_WriteReg(R10, 0x00000000)  returns 0x00 (0000ms, 0780ms total)
T17DC 001:172 JLINK_WriteReg(R11, 0x00000000)  returns 0x00 (0000ms, 0780ms total)
T17DC 001:172 JLINK_WriteReg(R12, 0x00000000)  returns 0x00 (0000ms, 0780ms total)
T17DC 001:172 JLINK_WriteReg(R13 (SP), 0x20001000)  returns 0x00 (0000ms, 0780ms total)
T17DC 001:172 JLINK_WriteReg(R14, 0x20000001)  returns 0x00 (0000ms, 0780ms total)
T17DC 001:172 JLINK_WriteReg(R15 (PC), 0x2000018C)  returns 0x00 (0000ms, 0780ms total)
T17DC 001:172 JLINK_WriteReg(XPSR, 0x01000000)  returns 0x00 (0000ms, 0780ms total)
T17DC 001:172 JLINK_WriteReg(MSP, 0x20001000)  returns 0x00 (0000ms, 0780ms total)
T17DC 001:172 JLINK_WriteReg(PSP, 0x20001000)  returns 0x00 (0000ms, 0780ms total)
T17DC 001:172 JLINK_WriteReg(CFBP, 0x00000000)  returns 0x00 (0000ms, 0780ms total)
T17DC 001:172 JLINK_SetBPEx(Addr = 0x20000000, Type = 0xFFFFFFF2)  returns 0x00000009 (0001ms, 0781ms total)
T17DC 001:173 JLINK_Go() (0003ms, 0784ms total)
T17DC 001:176 JLINK_IsHalted()  returns FALSE (0001ms, 0785ms total)
T17DC 001:178 JLINK_IsHalted()  returns FALSE (0001ms, 0785ms total)
T17DC 001:180 JLINK_IsHalted()  returns FALSE (0001ms, 0785ms total)
T17DC 001:182 JLINK_IsHalted()  returns FALSE (0000ms, 0784ms total)
T17DC 001:183 JLINK_IsHalted()  returns FALSE (0001ms, 0785ms total)
T17DC 001:185 JLINK_IsHalted()  returns FALSE (0001ms, 0785ms total)
T17DC 001:187 JLINK_IsHalted()  returns FALSE (0000ms, 0784ms total)
T17DC 001:188 JLINK_IsHalted()  returns FALSE (0000ms, 0784ms total)
T17DC 001:189 JLINK_IsHalted()  returns FALSE (0000ms, 0784ms total)
T17DC 001:190 JLINK_IsHalted()  returns FALSE (0001ms, 0785ms total)
T17DC 001:192 JLINK_IsHalted()  returns FALSE (0001ms, 0785ms total)
T17DC 001:194 JLINK_IsHalted()  returns FALSE (0001ms, 0785ms total)
T17DC 001:196 JLINK_IsHalted()  returns FALSE (0001ms, 0785ms total)
T17DC 001:198 JLINK_IsHalted()  returns FALSE (0001ms, 0785ms total)
T17DC 001:200 JLINK_IsHalted()  returns FALSE (0001ms, 0785ms total)
T17DC 001:202 JLINK_IsHalted()  returns FALSE (0000ms, 0784ms total)
T17DC 001:203 JLINK_IsHalted()  returns FALSE (0000ms, 0784ms total)
T17DC 001:204 JLINK_IsHalted()  returns FALSE (0000ms, 0784ms total)
T17DC 001:205 JLINK_IsHalted()  returns FALSE (0000ms, 0784ms total)
T17DC 001:206 JLINK_IsHalted()  returns FALSE (0001ms, 0785ms total)
T17DC 001:208 JLINK_IsHalted() -- CPU_ReadMem(2 bytes @ 0x20000000)  returns TRUE (0005ms, 0789ms total)
T17DC 001:213 JLINK_ReadReg(R15 (PC))  returns 0x20000000 (0000ms, 0784ms total)
T17DC 001:213 JLINK_ClrBPEx(BPHandle = 0x00000009)  returns 0x00 (0000ms, 0784ms total)
T17DC 001:213 JLINK_ReadReg(R0)  returns 0x00000000 (0000ms, 0784ms total)
T17DC 001:214 JLINK_WriteMem(0x20000260, 0x0400 Bytes, ...) - Data: 20 00 00 20 28 00 00 20 B0 01 00 20 AC 01 00 20 ... -- CPU_WriteMem(1024 bytes @ 0x20000260)  returns 0x400 (0006ms, 0790ms total)
T17DC 001:220 JLINK_WriteReg(R0, 0x08010400)  returns 0x00 (0000ms, 0790ms total)
T17DC 001:220 JLINK_WriteReg(R1, 0x00000400)  returns 0x00 (0000ms, 0790ms total)
T17DC 001:220 JLINK_WriteReg(R2, 0x20000260)  returns 0x00 (0000ms, 0790ms total)
T17DC 001:220 JLINK_WriteReg(R3, 0x00000000)  returns 0x00 (0000ms, 0790ms total)
T17DC 001:220 JLINK_WriteReg(R4, 0x00000000)  returns 0x00 (0000ms, 0790ms total)
T17DC 001:220 JLINK_WriteReg(R5, 0x00000000)  returns 0x00 (0000ms, 0790ms total)
T17DC 001:220 JLINK_WriteReg(R6, 0x00000000)  returns 0x00 (0000ms, 0790ms total)
T17DC 001:220 JLINK_WriteReg(R7, 0x00000000)  returns 0x00 (0000ms, 0790ms total)
T17DC 001:220 JLINK_WriteReg(R8, 0x00000000)  returns 0x00 (0000ms, 0790ms total)
T17DC 001:220 JLINK_WriteReg(R9, 0x20000258)  returns 0x00 (0000ms, 0790ms total)
T17DC 001:220 JLINK_WriteReg(R10, 0x00000000)  returns 0x00 (0000ms, 0790ms total)
T17DC 001:220 JLINK_WriteReg(R11, 0x00000000)  returns 0x00 (0000ms, 0790ms total)
T17DC 001:220 JLINK_WriteReg(R12, 0x00000000)  returns 0x00 (0000ms, 0790ms total)
T17DC 001:220 JLINK_WriteReg(R13 (SP), 0x20001000)  returns 0x00 (0000ms, 0790ms total)
T17DC 001:220 JLINK_WriteReg(R14, 0x20000001)  returns 0x00 (0000ms, 0790ms total)
T17DC 001:220 JLINK_WriteReg(R15 (PC), 0x2000018C)  returns 0x00 (0000ms, 0790ms total)
T17DC 001:220 JLINK_WriteReg(XPSR, 0x01000000)  returns 0x00 (0000ms, 0790ms total)
T17DC 001:220 JLINK_WriteReg(MSP, 0x20001000)  returns 0x00 (0000ms, 0790ms total)
T17DC 001:220 JLINK_WriteReg(PSP, 0x20001000)  returns 0x00 (0000ms, 0790ms total)
T17DC 001:220 JLINK_WriteReg(CFBP, 0x00000000)  returns 0x00 (0000ms, 0790ms total)
T17DC 001:220 JLINK_SetBPEx(Addr = 0x20000000, Type = 0xFFFFFFF2)  returns 0x0000000A (0000ms, 0790ms total)
T17DC 001:220 JLINK_Go() (0003ms, 0793ms total)
T17DC 001:223 JLINK_IsHalted()  returns FALSE (0001ms, 0794ms total)
T17DC 001:225 JLINK_IsHalted()  returns FALSE (0001ms, 0794ms total)
T17DC 001:227 JLINK_IsHalted()  returns FALSE (0001ms, 0794ms total)
T17DC 001:229 JLINK_IsHalted()  returns FALSE (0001ms, 0794ms total)
T17DC 001:231 JLINK_IsHalted()  returns FALSE (0001ms, 0794ms total)
T17DC 001:233 JLINK_IsHalted()  returns FALSE (0001ms, 0794ms total)
T17DC 001:235 JLINK_IsHalted()  returns FALSE (0001ms, 0794ms total)
T17DC 001:237 JLINK_IsHalted()  returns FALSE (0000ms, 0793ms total)
T17DC 001:238 JLINK_IsHalted()  returns FALSE (0001ms, 0794ms total)
T17DC 001:265 JLINK_IsHalted() -- CPU_ReadMem(2 bytes @ 0x20000000)  returns TRUE (0006ms, 0799ms total)
T17DC 001:271 JLINK_ReadReg(R15 (PC))  returns 0x20000000 (0000ms, 0793ms total)
T17DC 001:271 JLINK_ClrBPEx(BPHandle = 0x0000000A)  returns 0x00 (0000ms, 0793ms total)
T17DC 001:271 JLINK_ReadReg(R0)  returns 0x00000000 (0000ms, 0793ms total)
T17DC 001:271 JLINK_WriteMem(0x20000260, 0x0400 Bytes, ...) - Data: 00 68 40 F0 02 00 08 60 52 48 40 68 51 49 48 60 ... -- CPU_WriteMem(1024 bytes @ 0x20000260)  returns 0x400 (0007ms, 0800ms total)
T17DC 001:278 JLINK_WriteReg(R0, 0x08010800)  returns 0x00 (0000ms, 0800ms total)
T17DC 001:278 JLINK_WriteReg(R1, 0x00000400)  returns 0x00 (0000ms, 0800ms total)
T17DC 001:278 JLINK_WriteReg(R2, 0x20000260)  returns 0x00 (0000ms, 0800ms total)
T17DC 001:278 JLINK_WriteReg(R3, 0x00000000)  returns 0x00 (0000ms, 0800ms total)
T17DC 001:278 JLINK_WriteReg(R4, 0x00000000)  returns 0x00 (0000ms, 0800ms total)
T17DC 001:278 JLINK_WriteReg(R5, 0x00000000)  returns 0x00 (0000ms, 0800ms total)
T17DC 001:278 JLINK_WriteReg(R6, 0x00000000)  returns 0x00 (0000ms, 0800ms total)
T17DC 001:278 JLINK_WriteReg(R7, 0x00000000)  returns 0x00 (0000ms, 0800ms total)
T17DC 001:278 JLINK_WriteReg(R8, 0x00000000)  returns 0x00 (0000ms, 0800ms total)
T17DC 001:278 JLINK_WriteReg(R9, 0x20000258)  returns 0x00 (0000ms, 0800ms total)
T17DC 001:278 JLINK_WriteReg(R10, 0x00000000)  returns 0x00 (0000ms, 0800ms total)
T17DC 001:278 JLINK_WriteReg(R11, 0x00000000)  returns 0x00 (0000ms, 0800ms total)
T17DC 001:278 JLINK_WriteReg(R12, 0x00000000)  returns 0x00 (0000ms, 0800ms total)
T17DC 001:278 JLINK_WriteReg(R13 (SP), 0x20001000)  returns 0x00 (0000ms, 0800ms total)
T17DC 001:278 JLINK_WriteReg(R14, 0x20000001)  returns 0x00 (0000ms, 0800ms total)
T17DC 001:278 JLINK_WriteReg(R15 (PC), 0x2000018C)  returns 0x00 (0000ms, 0800ms total)
T17DC 001:278 JLINK_WriteReg(XPSR, 0x01000000)  returns 0x00 (0000ms, 0800ms total)
T17DC 001:278 JLINK_WriteReg(MSP, 0x20001000)  returns 0x00 (0000ms, 0800ms total)
T17DC 001:278 JLINK_WriteReg(PSP, 0x20001000)  returns 0x00 (0000ms, 0800ms total)
T17DC 001:278 JLINK_WriteReg(CFBP, 0x00000000)  returns 0x00 (0000ms, 0800ms total)
T17DC 001:278 JLINK_SetBPEx(Addr = 0x20000000, Type = 0xFFFFFFF2)  returns 0x0000000B (0000ms, 0800ms total)
T17DC 001:278 JLINK_Go() (0002ms, 0802ms total)
T17DC 001:281 JLINK_IsHalted()  returns FALSE (0000ms, 0803ms total)
T17DC 001:283 JLINK_IsHalted()  returns FALSE (0001ms, 0804ms total)
T17DC 001:285 JLINK_IsHalted()  returns FALSE (0001ms, 0804ms total)
T17DC 001:295 JLINK_IsHalted()  returns FALSE (0001ms, 0804ms total)
T17DC 001:297 JLINK_IsHalted()  returns FALSE (0001ms, 0804ms total)
T17DC 001:299 JLINK_IsHalted()  returns FALSE (0001ms, 0804ms total)
T17DC 001:301 JLINK_IsHalted()  returns FALSE (0001ms, 0804ms total)
T17DC 001:303 JLINK_IsHalted()  returns FALSE (0001ms, 0804ms total)
T17DC 001:305 JLINK_IsHalted()  returns FALSE (0001ms, 0804ms total)
T17DC 001:307 JLINK_IsHalted()  returns FALSE (0001ms, 0804ms total)
T17DC 001:309 JLINK_IsHalted()  returns FALSE (0001ms, 0804ms total)
T17DC 001:311 JLINK_IsHalted()  returns FALSE (0001ms, 0804ms total)
T17DC 001:313 JLINK_IsHalted() -- CPU_ReadMem(2 bytes @ 0x20000000)  returns TRUE (0006ms, 0809ms total)
T17DC 001:319 JLINK_ReadReg(R15 (PC))  returns 0x20000000 (0000ms, 0803ms total)
T17DC 001:319 JLINK_ClrBPEx(BPHandle = 0x0000000B)  returns 0x00 (0000ms, 0803ms total)
T17DC 001:319 JLINK_ReadReg(R0)  returns 0x00000000 (0000ms, 0803ms total)
T17DC 001:320 JLINK_WriteMem(0x20000260, 0x0400 Bytes, ...) - Data: 24 20 FF F7 92 FF 30 20 FF F7 8F FF 48 20 FF F7 ... -- CPU_WriteMem(1024 bytes @ 0x20000260)  returns 0x400 (0006ms, 0809ms total)
T17DC 001:326 JLINK_WriteReg(R0, 0x08010C00)  returns 0x00 (0000ms, 0809ms total)
T17DC 001:326 JLINK_WriteReg(R1, 0x00000400)  returns 0x00 (0000ms, 0809ms total)
T17DC 001:326 JLINK_WriteReg(R2, 0x20000260)  returns 0x00 (0000ms, 0809ms total)
T17DC 001:326 JLINK_WriteReg(R3, 0x00000000)  returns 0x00 (0000ms, 0809ms total)
T17DC 001:326 JLINK_WriteReg(R4, 0x00000000)  returns 0x00 (0000ms, 0809ms total)
T17DC 001:326 JLINK_WriteReg(R5, 0x00000000)  returns 0x00 (0000ms, 0809ms total)
T17DC 001:326 JLINK_WriteReg(R6, 0x00000000)  returns 0x00 (0000ms, 0809ms total)
T17DC 001:326 JLINK_WriteReg(R7, 0x00000000)  returns 0x00 (0000ms, 0809ms total)
T17DC 001:326 JLINK_WriteReg(R8, 0x00000000)  returns 0x00 (0000ms, 0809ms total)
T17DC 001:326 JLINK_WriteReg(R9, 0x20000258)  returns 0x00 (0000ms, 0809ms total)
T17DC 001:326 JLINK_WriteReg(R10, 0x00000000)  returns 0x00 (0000ms, 0809ms total)
T17DC 001:326 JLINK_WriteReg(R11, 0x00000000)  returns 0x00 (0000ms, 0809ms total)
T17DC 001:326 JLINK_WriteReg(R12, 0x00000000)  returns 0x00 (0000ms, 0809ms total)
T17DC 001:326 JLINK_WriteReg(R13 (SP), 0x20001000)  returns 0x00 (0000ms, 0809ms total)
T17DC 001:326 JLINK_WriteReg(R14, 0x20000001)  returns 0x00 (0000ms, 0809ms total)
T17DC 001:326 JLINK_WriteReg(R15 (PC), 0x2000018C)  returns 0x00 (0000ms, 0809ms total)
T17DC 001:326 JLINK_WriteReg(XPSR, 0x01000000)  returns 0x00 (0000ms, 0809ms total)
T17DC 001:326 JLINK_WriteReg(MSP, 0x20001000)  returns 0x00 (0000ms, 0809ms total)
T17DC 001:326 JLINK_WriteReg(PSP, 0x20001000)  returns 0x00 (0000ms, 0809ms total)
T17DC 001:326 JLINK_WriteReg(CFBP, 0x00000000)  returns 0x00 (0000ms, 0809ms total)
T17DC 001:326 JLINK_SetBPEx(Addr = 0x20000000, Type = 0xFFFFFFF2)  returns 0x0000000C (0000ms, 0809ms total)
T17DC 001:326 JLINK_Go() (0003ms, 0812ms total)
T17DC 001:329 JLINK_IsHalted()  returns FALSE (0001ms, 0813ms total)
T17DC 001:331 JLINK_IsHalted()  returns FALSE (0001ms, 0813ms total)
T17DC 001:333 JLINK_IsHalted()  returns FALSE (0001ms, 0813ms total)
T17DC 001:335 JLINK_IsHalted()  returns FALSE (0001ms, 0813ms total)
T17DC 001:337 JLINK_IsHalted()  returns FALSE (0001ms, 0813ms total)
T17DC 001:339 JLINK_IsHalted()  returns FALSE (0001ms, 0813ms total)
T17DC 001:341 JLINK_IsHalted()  returns FALSE (0001ms, 0813ms total)
T17DC 001:343 JLINK_IsHalted()  returns FALSE (0001ms, 0813ms total)
T17DC 001:345 JLINK_IsHalted()  returns FALSE (0001ms, 0813ms total)
T17DC 001:347 JLINK_IsHalted()  returns FALSE (0001ms, 0813ms total)
T17DC 001:367 JLINK_IsHalted() -- CPU_ReadMem(2 bytes @ 0x20000000)  returns TRUE (0005ms, 0817ms total)
T17DC 001:372 JLINK_ReadReg(R15 (PC))  returns 0x20000000 (0000ms, 0812ms total)
T17DC 001:372 JLINK_ClrBPEx(BPHandle = 0x0000000C)  returns 0x00 (0000ms, 0812ms total)
T17DC 001:372 JLINK_ReadReg(R0)  returns 0x00000000 (0000ms, 0812ms total)
T17DC 001:373 JLINK_WriteMem(0x20000260, 0x0400 Bytes, ...) - Data: 0D 46 16 46 32 46 29 46 20 46 FF F7 E9 FF 70 BD ... -- CPU_WriteMem(1024 bytes @ 0x20000260)  returns 0x400 (0007ms, 0819ms total)
T17DC 001:380 JLINK_WriteReg(R0, 0x08011000)  returns 0x00 (0000ms, 0819ms total)
T17DC 001:380 JLINK_WriteReg(R1, 0x00000400)  returns 0x00 (0000ms, 0819ms total)
T17DC 001:380 JLINK_WriteReg(R2, 0x20000260)  returns 0x00 (0000ms, 0819ms total)
T17DC 001:380 JLINK_WriteReg(R3, 0x00000000)  returns 0x00 (0000ms, 0819ms total)
T17DC 001:380 JLINK_WriteReg(R4, 0x00000000)  returns 0x00 (0000ms, 0819ms total)
T17DC 001:380 JLINK_WriteReg(R5, 0x00000000)  returns 0x00 (0000ms, 0819ms total)
T17DC 001:380 JLINK_WriteReg(R6, 0x00000000)  returns 0x00 (0000ms, 0819ms total)
T17DC 001:380 JLINK_WriteReg(R7, 0x00000000)  returns 0x00 (0000ms, 0819ms total)
T17DC 001:380 JLINK_WriteReg(R8, 0x00000000)  returns 0x00 (0000ms, 0819ms total)
T17DC 001:380 JLINK_WriteReg(R9, 0x20000258)  returns 0x00 (0000ms, 0819ms total)
T17DC 001:380 JLINK_WriteReg(R10, 0x00000000)  returns 0x00 (0000ms, 0819ms total)
T17DC 001:380 JLINK_WriteReg(R11, 0x00000000)  returns 0x00 (0000ms, 0819ms total)
T17DC 001:380 JLINK_WriteReg(R12, 0x00000000)  returns 0x00 (0000ms, 0819ms total)
T17DC 001:380 JLINK_WriteReg(R13 (SP), 0x20001000)  returns 0x00 (0000ms, 0819ms total)
T17DC 001:380 JLINK_WriteReg(R14, 0x20000001)  returns 0x00 (0000ms, 0819ms total)
T17DC 001:380 JLINK_WriteReg(R15 (PC), 0x2000018C)  returns 0x00 (0000ms, 0819ms total)
T17DC 001:380 JLINK_WriteReg(XPSR, 0x01000000)  returns 0x00 (0000ms, 0819ms total)
T17DC 001:380 JLINK_WriteReg(MSP, 0x20001000)  returns 0x00 (0000ms, 0819ms total)
T17DC 001:380 JLINK_WriteReg(PSP, 0x20001000)  returns 0x00 (0000ms, 0819ms total)
T17DC 001:380 JLINK_WriteReg(CFBP, 0x00000000)  returns 0x00 (0000ms, 0819ms total)
T17DC 001:380 JLINK_SetBPEx(Addr = 0x20000000, Type = 0xFFFFFFF2)  returns 0x0000000D (0000ms, 0819ms total)
T17DC 001:380 JLINK_Go() (0003ms, 0822ms total)
T17DC 001:383 JLINK_IsHalted()  returns FALSE (0001ms, 0823ms total)
T17DC 001:385 JLINK_IsHalted()  returns FALSE (0001ms, 0823ms total)
T17DC 001:387 JLINK_IsHalted()  returns FALSE (0001ms, 0823ms total)
T17DC 001:389 JLINK_IsHalted()  returns FALSE (0001ms, 0823ms total)
T17DC 001:391 JLINK_IsHalted()  returns FALSE (0001ms, 0823ms total)
T17DC 001:393 JLINK_IsHalted()  returns FALSE (0001ms, 0823ms total)
T17DC 001:395 JLINK_IsHalted()  returns FALSE (0001ms, 0823ms total)
T17DC 001:397 JLINK_IsHalted()  returns FALSE (0001ms, 0823ms total)
T17DC 001:399 JLINK_IsHalted()  returns FALSE (0001ms, 0823ms total)
T17DC 001:401 JLINK_IsHalted()  returns FALSE (0001ms, 0823ms total)
T17DC 001:403 JLINK_IsHalted()  returns FALSE (0001ms, 0823ms total)
T17DC 001:405 JLINK_IsHalted()  returns FALSE (0001ms, 0823ms total)
T17DC 001:407 JLINK_IsHalted()  returns FALSE (0001ms, 0823ms total)
T17DC 001:409 JLINK_IsHalted()  returns FALSE (0001ms, 0823ms total)
T17DC 001:411 JLINK_IsHalted()  returns FALSE (0001ms, 0823ms total)
T17DC 001:413 JLINK_IsHalted()  returns FALSE (0001ms, 0823ms total)
T17DC 001:415 JLINK_IsHalted() -- CPU_ReadMem(2 bytes @ 0x20000000)  returns TRUE (0005ms, 0827ms total)
T17DC 001:420 JLINK_ReadReg(R15 (PC))  returns 0x20000000 (0000ms, 0822ms total)
T17DC 001:420 JLINK_ClrBPEx(BPHandle = 0x0000000D)  returns 0x00 (0000ms, 0822ms total)
T17DC 001:420 JLINK_ReadReg(R0)  returns 0x00000000 (0000ms, 0822ms total)
T17DC 001:421 JLINK_WriteMem(0x20000260, 0x0400 Bytes, ...) - Data: 4B 48 02 F0 F6 FE 18 B9 01 20 4A 49 08 70 31 E0 ... -- CPU_WriteMem(1024 bytes @ 0x20000260)  returns 0x400 (0007ms, 0829ms total)
T17DC 001:428 JLINK_WriteReg(R0, 0x08011400)  returns 0x00 (0000ms, 0829ms total)
T17DC 001:428 JLINK_WriteReg(R1, 0x00000400)  returns 0x00 (0000ms, 0829ms total)
T17DC 001:428 JLINK_WriteReg(R2, 0x20000260)  returns 0x00 (0000ms, 0829ms total)
T17DC 001:428 JLINK_WriteReg(R3, 0x00000000)  returns 0x00 (0000ms, 0829ms total)
T17DC 001:428 JLINK_WriteReg(R4, 0x00000000)  returns 0x00 (0000ms, 0829ms total)
T17DC 001:428 JLINK_WriteReg(R5, 0x00000000)  returns 0x00 (0000ms, 0829ms total)
T17DC 001:428 JLINK_WriteReg(R6, 0x00000000)  returns 0x00 (0000ms, 0829ms total)
T17DC 001:428 JLINK_WriteReg(R7, 0x00000000)  returns 0x00 (0000ms, 0829ms total)
T17DC 001:428 JLINK_WriteReg(R8, 0x00000000)  returns 0x00 (0000ms, 0829ms total)
T17DC 001:428 JLINK_WriteReg(R9, 0x20000258)  returns 0x00 (0000ms, 0829ms total)
T17DC 001:428 JLINK_WriteReg(R10, 0x00000000)  returns 0x00 (0000ms, 0829ms total)
T17DC 001:428 JLINK_WriteReg(R11, 0x00000000)  returns 0x00 (0000ms, 0829ms total)
T17DC 001:428 JLINK_WriteReg(R12, 0x00000000)  returns 0x00 (0000ms, 0829ms total)
T17DC 001:428 JLINK_WriteReg(R13 (SP), 0x20001000)  returns 0x00 (0000ms, 0829ms total)
T17DC 001:428 JLINK_WriteReg(R14, 0x20000001)  returns 0x00 (0000ms, 0829ms total)
T17DC 001:428 JLINK_WriteReg(R15 (PC), 0x2000018C)  returns 0x00 (0000ms, 0829ms total)
T17DC 001:428 JLINK_WriteReg(XPSR, 0x01000000)  returns 0x00 (0000ms, 0829ms total)
T17DC 001:428 JLINK_WriteReg(MSP, 0x20001000)  returns 0x00 (0000ms, 0829ms total)
T17DC 001:428 JLINK_WriteReg(PSP, 0x20001000)  returns 0x00 (0000ms, 0829ms total)
T17DC 001:428 JLINK_WriteReg(CFBP, 0x00000000)  returns 0x00 (0000ms, 0829ms total)
T17DC 001:428 JLINK_SetBPEx(Addr = 0x20000000, Type = 0xFFFFFFF2)  returns 0x0000000E (0000ms, 0829ms total)
T17DC 001:428 JLINK_Go() (0003ms, 0832ms total)
T17DC 001:431 JLINK_IsHalted()  returns FALSE (0001ms, 0833ms total)
T17DC 001:433 JLINK_IsHalted()  returns FALSE (0001ms, 0833ms total)
T17DC 001:435 JLINK_IsHalted()  returns FALSE (0001ms, 0833ms total)
T17DC 001:437 JLINK_IsHalted()  returns FALSE (0001ms, 0833ms total)
T17DC 001:439 JLINK_IsHalted()  returns FALSE (0001ms, 0833ms total)
T17DC 001:441 JLINK_IsHalted()  returns FALSE (0001ms, 0833ms total)
